T3184 2045:113 SEGGER J-Link V5.00 Log File (0000ms, 20761ms total)
T3184 2045:113 DLL Compiled: Jun  8 2015 21:22:48 (0000ms, 20761ms total)
T3184 2045:113 Logging started @ 2019-12-30 09:32 (0000ms, 20761ms total)
T3184 2045:113 JLINK_SetWarnOutHandler(...) (0000ms, 20761ms total)
T3184 2045:113 JLINK_OpenEx(...)
Firmware: J-Link V10 compiled Jul 23 2019 13:46:10
Hardware: V10.10
S/N: 260106173
Feature(s): FlashBP, GDB, FlashDL, JFlash, RDIDevice "STM32F405RG" selected.  returns O.K. (0265ms, 21026ms total)
T3184 2045:378 JLINK_GetEmuCaps()  returns 0xB9FF7BBF (0000ms, 21026ms total)
T3184 2045:378 JLINK_TIF_GetAvailable(...) (0001ms, 21027ms total)
T3184 2045:379 JLINK_SetErrorOutHandler(...) (0000ms, 21027ms total)
T3184 2045:379 JLINK_ExecCommand("ProjectFile = "F:\BLDC and Driver\freeGo_motorDriver\freeGo_motorDriver-V1.2P\MDK_ARM\JLinkSettings.ini"", ...)Device "STM32F405RG" selected.  returns 0x00 (0001ms, 21028ms total)
T3184 2045:380 JLINK_ExecCommand("Device = STM32F405RGTx", ...)Device "STM32F405RG" selected.  returns 0x00 (0001ms, 21029ms total)
T3184 2045:381 JLINK_ExecCommand("DisableConnectionTimeout", ...)  returns 0x01 (0000ms, 21029ms total)
T3184 2045:381 JLINK_GetHardwareVersion()  returns 0x18A88 (0000ms, 21029ms total)
T3184 2045:381 JLINK_GetDLLVersion()  returns 50000 (0000ms, 21029ms total)
T3184 2045:381 JLINK_GetFirmwareString(...) (0000ms, 21029ms total)
T3184 2045:381 JLINK_GetDLLVersion()  returns 50000 (0000ms, 21029ms total)
T3184 2045:381 JLINK_GetCompileDateTime() (0000ms, 21029ms total)
T3184 2045:381 JLINK_GetFirmwareString(...) (0000ms, 21029ms total)
T3184 2045:381 JLINK_GetHardwareVersion()  returns 0x18A88 (0000ms, 21029ms total)
T3184 2045:381 JLINK_TIF_Select(JLINKARM_TIF_SWD)  returns 0x00 (0001ms, 21030ms total)
T3184 2045:382 JLINK_SetSpeed(5000) (0000ms, 21030ms total)
T3184 2045:382 JLINK_GetId() >0x108 TIF>Found SWD-DP with ID 0x2BA01477 >0x0D TIF> >0x28 TIF> >0x0D TIF> >0x28 TIF> >0x0D TIF> >0x21 TIF> >0x0D TIF> >0x28 TIF> >0x0D TIF> >0x28 TIF> >0x0D TIF> >0x28 TIF> >0x0D TIF> >0x21 TIF> >0x0D TIF> >0x21 TIF> >0x0D TIF> >0x28 TIF> >0x0D TIF> >0x21 TIF> >0x0D TIF> >0x21 TIF> >0x0D TIF> >0x28 TIF> >0x0D TIF> >0x21 TIF> >0x0D TIF> >0x21 TIF> >0x108 TIF>Found SWD-DP with ID 0x2BA01477 >0x0D TIF> >0x21 TIF> >0x0D TIF> >0x28 TIF> >0x0D TIF> >0x28 TIF> >0x0D TIF>
 >0x21 TIF> >0x0D TIF> >0x28 TIF> >0x0D TIF> >0x21 TIF> >0x0D TIF> >0x21 TIF> >0x0D TIF> >0x21 TIF> >0x0D TIF> >0x21 TIF> >0x0D TIF> >0x28 TIF> >0x0D TIF> >0x28 TIF> >0x0D TIF> >0x21 TIF> >0x0D TIF> >0x28 TIF> >0x0D TIF> >0x28 TIF> >0x0D TIF> >0x28 TIF> >0x0D TIF> >0x21 TIF> >0x0D TIF> >0x21 TIF> >0x0D TIF> >0x28 TIF> >0x0D TIF> >0x21 TIF> >0x0D TIF> >0x21 TIF>Found Cortex-M4 r0p1, Little endian. -- CPU_WriteMem(4 bytes @ 0xE0002000) -- CPU_ReadMem(4 bytes @ 0xE000EDF0)
 -- CPU_ReadMem(4 bytes @ 0xE0002000)FPUnit: 6 code (BP) slots and 2 literal slots -- CPU_ReadMem(4 bytes @ 0xE000EDFC) -- CPU_ReadMem(4 bytes @ 0xE0001000) -- CPU_WriteMem(4 bytes @ 0xE0001000) -- CPU_ReadMem(4 bytes @ 0xE000ED88) -- CPU_WriteMem(4 bytes @ 0xE000ED88) -- CPU_ReadMem(4 bytes @ 0xE000ED88) -- CPU_WriteMem(4 bytes @ 0xE000ED88)CoreSight components:ROMTbl 0 @ E00FF000 -- CPU_ReadMem(16 bytes @ 0xE00FF000) -- CPU_ReadMem(16 bytes @ 0xE000EFF0) -- CPU_ReadMem(16 bytes @ 0xE000EFE0)
ROMTbl 0 [0]: FFF0F000, CID: B105E00D, PID: 000BB00C SCS -- CPU_ReadMem(16 bytes @ 0xE0001FF0) -- CPU_ReadMem(16 bytes @ 0xE0001FE0)ROMTbl 0 [1]: FFF02000, CID: B105E00D, PID: 003BB002 DWT -- CPU_ReadMem(16 bytes @ 0xE0002FF0) -- CPU_ReadMem(16 bytes @ 0xE0002FE0)ROMTbl 0 [2]: FFF03000, CID: B105E00D, PID: 002BB003 FPB -- CPU_ReadMem(16 bytes @ 0xE0000FF0) -- CPU_ReadMem(16 bytes @ 0xE0000FE0)ROMTbl 0 [3]: FFF01000, CID: B105E00D, PID: 003BB001 ITM -- CPU_ReadMem(16 bytes @ 0xE00FF010)
 -- CPU_ReadMem(16 bytes @ 0xE0040FF0) -- CPU_ReadMem(16 bytes @ 0xE0040FE0)ROMTbl 0 [4]: FFF41000, CID: B105900D, PID: 000BB9A1 TPIU -- CPU_ReadMem(16 bytes @ 0xE0041FF0) -- CPU_ReadMem(16 bytes @ 0xE0041FE0)ROMTbl 0 [5]: FFF42000, CID: B105900D, PID: 000BB925 ETM >0x0D TIF> >0x21 TIF>  returns 0x2BA01477 (0027ms, 21057ms total)
T3184 2045:409 JLINK_GetDLLVersion()  returns 50000 (0000ms, 21057ms total)
T3184 2045:409 JLINK_CORE_GetFound()  returns 0xE0000FF (0000ms, 21057ms total)
T3184 2045:409 JLINK_GetDebugInfo(0x100) -- Value=0xE00FF003  returns 0x00 (0000ms, 21057ms total)
T3184 2045:409 JLINK_GetDebugInfo(0x100) -- Value=0xE00FF003  returns 0x00 (0000ms, 21057ms total)
T3184 2045:409 JLINK_GetDebugInfo(0x101)  returns 0xFFFFFFFF (0000ms, 21057ms total)
T3184 2045:409 JLINK_ReadMemEx(0xE0041FF0, 0x0010 Bytes, ..., AccessWidth = 33554436) -- CPU is running -- CPU_ReadMem(16 bytes @ 0xE0041FF0) - Data: 0D 00 00 00 90 00 00 00 05 00 00 00 B1 00 00 00  returns 0x10 (0000ms, 21057ms total)
T3184 2045:409 JLINK_ReadMemEx(0xE0041FD0, 0x0020 Bytes, ..., AccessWidth = 33554436) -- CPU is running -- CPU_ReadMem(32 bytes @ 0xE0041FD0) - Data: 04 00 00 00 00 00 00 00 00 00 00 00 00 00 00 00 ...  returns 0x20 (0001ms, 21058ms total)
T3184 2045:410 JLINK_GetDebugInfo(0x102)  returns 0xFFFFFFFF (0000ms, 21058ms total)
T3184 2045:410 JLINK_GetDebugInfo(0x103)  returns 0xFFFFFFFF (0000ms, 21058ms total)
T3184 2045:410 JLINK_ReadMemEx(0xE0040FF0, 0x0010 Bytes, ..., AccessWidth = 33554436) -- CPU is running -- CPU_ReadMem(16 bytes @ 0xE0040FF0) - Data: 0D 00 00 00 90 00 00 00 05 00 00 00 B1 00 00 00  returns 0x10 (0000ms, 21058ms total)
T3184 2045:410 JLINK_GetDebugInfo(0x104)  returns 0xFFFFFFFF (0000ms, 21058ms total)
T3184 2045:410 JLINK_GetDebugInfo(0x105)  returns 0xFFFFFFFF (0000ms, 21058ms total)
T3184 2045:410 JLINK_GetDebugInfo(0x106)  returns 0xFFFFFFFF (0000ms, 21058ms total)
T3184 2045:410 JLINK_GetDebugInfo(0x107)  returns 0xFFFFFFFF (0000ms, 21058ms total)
T3184 2045:410 JLINK_GetDebugInfo(0x10C)  returns 0xFFFFFFFF (0000ms, 21058ms total)
T3184 2045:410 JLINK_GetDebugInfo(0x01)  returns 0xFFFFFFFF (0000ms, 21058ms total)
T3184 2045:410 JLINK_GetDeviceFamily()  returns 14 (0000ms, 21058ms total)
T3184 2045:410 JLINK_ReadMemU32(0xE000ED00, 0x0001 Items, ...) -- CPU is running -- CPU_ReadMem(4 bytes @ 0xE000ED00) - Data: 41 C2 0F 41  returns 0x01 (0001ms, 21059ms total)
T3184 2045:411 JLINK_GetDebugInfo(0x10F)  returns 0xFFFFFFFF (0000ms, 21059ms total)
T3184 2045:411 JLINK_SetResetType(JLINKARM_RESET_TYPE_NORMAL)  returns JLINKARM_RESET_TYPE_NORMAL (0000ms, 21059ms total)
T3184 2045:411 JLINK_Reset() -- CPU is running -- CPU_WriteMem(4 bytes @ 0xE000EDF0) -- CPU is running -- CPU_WriteMem(4 bytes @ 0xE000EDFC) >0x35 TIF> -- CPU is running -- CPU_WriteMem(4 bytes @ 0xE000ED0C) -- CPU is running -- CPU_ReadMem(4 bytes @ 0xE000EDF0) -- CPU is running -- CPU_ReadMem(4 bytes @ 0xE000EDF0) -- CPU is running -- CPU_WriteMem(4 bytes @ 0xE000EDF0) -- CPU is running -- CPU_WriteMem(4 bytes @ 0xE000EDFC) -- CPU is running -- CPU_ReadMem(4 bytes @ 0xE000EDF0)
 -- CPU_WriteMem(4 bytes @ 0xE0002000) -- CPU_ReadMem(4 bytes @ 0xE000EDFC) -- CPU_ReadMem(4 bytes @ 0xE0001000) (0015ms, 21074ms total)
T3184 2045:426 JLINK_ReadReg(R15 (PC))  returns 0x08000228 (0000ms, 21074ms total)
T3184 2045:426 JLINK_ReadReg(XPSR)  returns 0x01000000 (0000ms, 21074ms total)
T3184 2045:426 JLINK_Halt()  returns 0x00 (0000ms, 21074ms total)
T3184 2045:426 JLINK_ReadMemU32(0xE000EDF0, 0x0001 Items, ...) -- CPU_ReadMem(4 bytes @ 0xE000EDF0) - Data: 03 00 03 00  returns 0x01 (0000ms, 21074ms total)
T3184 2045:426 JLINK_WriteU32(0xE000EDF0, 0xA05F0003) -- CPU_WriteMem(4 bytes @ 0xE000EDF0)  returns 0x00 (0001ms, 21075ms total)
T3184 2045:427 JLINK_WriteU32(0xE000EDFC, 0x01000000) -- CPU_WriteMem(4 bytes @ 0xE000EDFC)  returns 0x00 (0000ms, 21075ms total)
T3184 2045:427 JLINK_GetHWStatus(...)  returns 0x00 (0000ms, 21075ms total)
T3184 2045:427 JLINK_GetNumBPUnits(Type = 0xFFFFFF00)  returns 0x06 (0000ms, 21075ms total)
T3184 2045:427 JLINK_GetNumBPUnits(Type = 0xF0)  returns 0x2000 (0000ms, 21075ms total)
T3184 2045:427 JLINK_GetNumWPUnits()  returns 0x04 (0000ms, 21075ms total)
T3184 2045:427 JLINK_GetSpeed()  returns 0x1388 (0000ms, 21075ms total)
T3184 2045:427 JLINK_ReadMemU32(0xE000E004, 0x0001 Items, ...) -- CPU_ReadMem(4 bytes @ 0xE000E004) - Data: 02 00 00 00  returns 0x01 (0001ms, 21076ms total)
T3184 2045:428 JLINK_ReadMemU32(0xE000E004, 0x0001 Items, ...) -- CPU_ReadMem(4 bytes @ 0xE000E004) - Data: 02 00 00 00  returns 0x01 (0000ms, 21076ms total)
T3184 2045:428 JLINK_WriteMemEx(0xE0001000, 0x001C Bytes, ..., AccessWidth = 33554436) - Data: 01 00 00 00 00 00 00 00 00 00 00 00 00 00 00 00 ... -- CPU_WriteMem(28 bytes @ 0xE0001000)  returns 0x1C (0001ms, 21077ms total)
T3184 2045:429 JLINK_ReadReg(R15 (PC))  returns 0x08000228 (0000ms, 21077ms total)
T3184 2045:429 JLINK_ReadReg(XPSR)  returns 0x01000000 (0000ms, 21077ms total)
T3184 2045:434 JLINK_ReadMemEx(0xE0001004, 0x0004 Bytes, ..., AccessWidth = 33554432)Mis-aligned memory read: Address: 0xE0001004, NumBytes: 4, Alignment: 2 (Halfword-aligned)
  ***** Mis-aligned memory read: Address: 0xE0001004, NumBytes: 4, Alignment: 2 (Halfword-aligned) -- CPU_ReadMem(4 bytes @ 0xE0001004) - Data: 00 00 00 00  returns 0x04 (0001ms, 21078ms total)
T3184 2045:503 JLINK_SetResetType(JLINKARM_RESET_TYPE_NORMAL)  returns JLINKARM_RESET_TYPE_NORMAL (0000ms, 21078ms total)
T3184 2045:503 JLINK_Reset() -- CPU_WriteMem(4 bytes @ 0xE000EDF0) -- CPU_WriteMem(4 bytes @ 0xE000EDFC) >0x35 TIF> -- CPU_WriteMem(4 bytes @ 0xE000ED0C) -- CPU_ReadMem(4 bytes @ 0xE000EDF0) -- CPU_ReadMem(4 bytes @ 0xE000EDF0) -- CPU_WriteMem(4 bytes @ 0xE000EDF0) -- CPU_WriteMem(4 bytes @ 0xE000EDFC) -- CPU is running -- CPU_ReadMem(4 bytes @ 0xE000EDF0) -- CPU_WriteMem(4 bytes @ 0xE0002000) -- CPU_ReadMem(4 bytes @ 0xE000EDFC) -- CPU_ReadMem(4 bytes @ 0xE0001000) (0016ms, 21094ms total)
T3184 2045:519 JLINK_ReadReg(R15 (PC))  returns 0x08000228 (0000ms, 21094ms total)
T3184 2045:519 JLINK_ReadReg(XPSR)  returns 0x01000000 (0000ms, 21094ms total)
T3184 2045:761 JLINK_ReadMemEx(0x08000228, 0x003C Bytes, ..., AccessWidth = 33554432)Mis-aligned memory read: Address: 0x08000228, NumBytes: 60, Alignment: 2 (Halfword-aligned)
  ***** Mis-aligned memory read: Address: 0x08000228, NumBytes: 60, Alignment: 2 (Halfword-aligned) -- CPU_ReadMem(128 bytes @ 0x08000200) -- Updating C cache (128 bytes @ 0x08000200) -- Read from C cache (60 bytes @ 0x08000228) - Data: 09 48 80 47 09 48 00 47 FE E7 FE E7 FE E7 FE E7 ...  returns 0x3C (0001ms, 21095ms total)
T3184 2045:762 JLINK_ReadMemEx(0x08000228, 0x0002 Bytes, ..., AccessWidth = 33554432)Mis-aligned memory read: Address: 0x08000228, NumBytes: 2, Alignment: 2 (Halfword-aligned)
  ***** Mis-aligned memory read: Address: 0x08000228, NumBytes: 2, Alignment: 2 (Halfword-aligned) -- Read from C cache (2 bytes @ 0x08000228) - Data: 09 48  returns 0x02 (0001ms, 21096ms total)
T3184 2045:763 JLINK_ReadMemEx(0x0800022A, 0x0002 Bytes, ..., AccessWidth = 33554432)Mis-aligned memory read: Address: 0x0800022A, NumBytes: 2, Alignment: 2 (Halfword-aligned)
  ***** Mis-aligned memory read: Address: 0x0800022A, NumBytes: 2, Alignment: 2 (Halfword-aligned) -- Read from C cache (2 bytes @ 0x0800022A) - Data: 80 47  returns 0x02 (0000ms, 21096ms total)
T3184 2045:763 JLINK_ReadMemEx(0x0800022A, 0x0002 Bytes, ..., AccessWidth = 33554432)Mis-aligned memory read: Address: 0x0800022A, NumBytes: 2, Alignment: 2 (Halfword-aligned)
  ***** Mis-aligned memory read: Address: 0x0800022A, NumBytes: 2, Alignment: 2 (Halfword-aligned) -- Read from C cache (2 bytes @ 0x0800022A) - Data: 80 47  returns 0x02 (0000ms, 21096ms total)
T3184 2045:763 JLINK_ReadMemEx(0x0800022C, 0x003C Bytes, ..., AccessWidth = 33554432)Mis-aligned memory read: Address: 0x0800022C, NumBytes: 60, Alignment: 2 (Halfword-aligned)
  ***** Mis-aligned memory read: Address: 0x0800022C, NumBytes: 60, Alignment: 2 (Halfword-aligned) -- Read from C cache (60 bytes @ 0x0800022C) - Data: 09 48 00 47 FE E7 FE E7 FE E7 FE E7 FE E7 FE E7 ...  returns 0x3C (0000ms, 21096ms total)
T3184 2045:763 JLINK_ReadMemEx(0x0800022C, 0x0002 Bytes, ..., AccessWidth = 33554432)Mis-aligned memory read: Address: 0x0800022C, NumBytes: 2, Alignment: 2 (Halfword-aligned)
  ***** Mis-aligned memory read: Address: 0x0800022C, NumBytes: 2, Alignment: 2 (Halfword-aligned) -- Read from C cache (2 bytes @ 0x0800022C) - Data: 09 48  returns 0x02 (0000ms, 21096ms total)
T3184 2047:640 JLINK_ReadReg(R0)  returns 0x00000000 (0000ms, 21096ms total)
T3184 2047:640 JLINK_ReadReg(R1)  returns 0x00000000 (0000ms, 21096ms total)
T3184 2047:640 JLINK_ReadReg(R2)  returns 0x00000000 (0000ms, 21096ms total)
T3184 2047:640 JLINK_ReadReg(R3)  returns 0x00000000 (0000ms, 21096ms total)
T3184 2047:640 JLINK_ReadReg(R4)  returns 0x00000000 (0000ms, 21096ms total)
T3184 2047:640 JLINK_ReadReg(R5)  returns 0x00000000 (0000ms, 21096ms total)
T3184 2047:640 JLINK_ReadReg(R6)  returns 0x00000000 (0000ms, 21096ms total)
T3184 2047:640 JLINK_ReadReg(R7)  returns 0x00000000 (0000ms, 21096ms total)
T3184 2047:640 JLINK_ReadReg(R8)  returns 0x00000000 (0000ms, 21096ms total)
T3184 2047:640 JLINK_ReadReg(R9)  returns 0x00000000 (0000ms, 21096ms total)
T3184 2047:640 JLINK_ReadReg(R10)  returns 0x00000000 (0000ms, 21096ms total)
T3184 2047:640 JLINK_ReadReg(R11)  returns 0x00000000 (0000ms, 21096ms total)
T3184 2047:640 JLINK_ReadReg(R12)  returns 0x00000000 (0000ms, 21096ms total)
T3184 2047:640 JLINK_ReadReg(R13 (SP))  returns 0x20001160 (0000ms, 21096ms total)
T3184 2047:640 JLINK_ReadReg(R14)  returns 0xFFFFFFFF (0000ms, 21096ms total)
T3184 2047:641 JLINK_ReadReg(R15 (PC))  returns 0x08000228 (0000ms, 21097ms total)
T3184 2047:641 JLINK_ReadReg(XPSR)  returns 0x01000000 (0000ms, 21097ms total)
T3184 2047:641 JLINK_ReadReg(MSP)  returns 0x20001160 (0000ms, 21097ms total)
T3184 2047:641 JLINK_ReadReg(PSP)  returns 0x00000000 (0000ms, 21097ms total)
T3184 2047:641 JLINK_ReadReg(CFBP)  returns 0x00000000 (0000ms, 21097ms total)
T3184 2047:641 JLINK_ReadReg(FPSCR)  returns 0x00000000 (0002ms, 21099ms total)
T3184 2047:643 JLINK_ReadReg(FPS0)  returns 0x00000000 (0000ms, 21099ms total)
T3184 2047:643 JLINK_ReadReg(FPS1)  returns 0x00000000 (0000ms, 21099ms total)
T3184 2047:643 JLINK_ReadReg(FPS2)  returns 0x00000000 (0000ms, 21099ms total)
T3184 2047:643 JLINK_ReadReg(FPS3)  returns 0x00000000 (0000ms, 21099ms total)
T3184 2047:643 JLINK_ReadReg(FPS4)  returns 0x00000000 (0000ms, 21099ms total)
T3184 2047:643 JLINK_ReadReg(FPS5)  returns 0x00000000 (0000ms, 21099ms total)
T3184 2047:643 JLINK_ReadReg(FPS6)  returns 0x00000000 (0000ms, 21099ms total)
T3184 2047:643 JLINK_ReadReg(FPS7)  returns 0x00000000 (0000ms, 21099ms total)
T3184 2047:643 JLINK_ReadReg(FPS8)  returns 0x00000000 (0000ms, 21099ms total)
T3184 2047:643 JLINK_ReadReg(FPS9)  returns 0x00000000 (0001ms, 21100ms total)
T3184 2047:644 JLINK_ReadReg(FPS10)  returns 0x00000000 (0000ms, 21100ms total)
T3184 2047:644 JLINK_ReadReg(FPS11)  returns 0x00000000 (0000ms, 21100ms total)
T3184 2047:644 JLINK_ReadReg(FPS12)  returns 0x00000000 (0000ms, 21100ms total)
T3184 2047:644 JLINK_ReadReg(FPS13)  returns 0x00000000 (0000ms, 21100ms total)
T3184 2047:644 JLINK_ReadReg(FPS14)  returns 0x00000000 (0000ms, 21100ms total)
T3184 2047:644 JLINK_ReadReg(FPS15)  returns 0x00000000 (0000ms, 21100ms total)
T3184 2047:644 JLINK_ReadReg(FPS16)  returns 0x00000000 (0000ms, 21100ms total)
T3184 2047:644 JLINK_ReadReg(FPS17)  returns 0x00000000 (0000ms, 21100ms total)
T3184 2047:644 JLINK_ReadReg(FPS18)  returns 0x00000000 (0000ms, 21100ms total)
T3184 2047:644 JLINK_ReadReg(FPS19)  returns 0x00000000 (0000ms, 21100ms total)
T3184 2047:644 JLINK_ReadReg(FPS20)  returns 0x00000000 (0000ms, 21100ms total)
T3184 2047:644 JLINK_ReadReg(FPS21)  returns 0x00000000 (0000ms, 21100ms total)
T3184 2047:644 JLINK_ReadReg(FPS22)  returns 0x00000000 (0000ms, 21100ms total)
T3184 2047:644 JLINK_ReadReg(FPS23)  returns 0x00000000 (0000ms, 21100ms total)
T3184 2047:644 JLINK_ReadReg(FPS24)  returns 0x00000000 (0000ms, 21100ms total)
T3184 2047:644 JLINK_ReadReg(FPS25)  returns 0x00000000 (0000ms, 21100ms total)
T3184 2047:644 JLINK_ReadReg(FPS26)  returns 0x00000000 (0000ms, 21100ms total)
T3184 2047:644 JLINK_ReadReg(FPS27)  returns 0x00000000 (0000ms, 21100ms total)
T3184 2047:644 JLINK_ReadReg(FPS28)  returns 0x00000000 (0000ms, 21100ms total)
T3184 2047:644 JLINK_ReadReg(FPS29)  returns 0x00000000 (0000ms, 21100ms total)
T3184 2047:644 JLINK_ReadReg(FPS30)  returns 0x00000000 (0000ms, 21100ms total)
T3184 2047:644 JLINK_ReadReg(FPS31)  returns 0x00000000 (0000ms, 21100ms total)
T3184 2047:659 JLINK_ReadMemEx(0x20000B54, 0x0001 Bytes, ..., AccessWidth = 33554432)Mis-aligned memory read: Address: 0x20000B54, NumBytes: 1, Alignment: 2 (Halfword-aligned)
  ***** Mis-aligned memory read: Address: 0x20000B54, NumBytes: 1, Alignment: 2 (Halfword-aligned) -- CPU_ReadMem(64 bytes @ 0x20000B40) -- Updating C cache (64 bytes @ 0x20000B40) -- Read from C cache (1 bytes @ 0x20000B54) - Data: 00  returns 0x01 (0000ms, 21100ms total)
T3184 2047:660 JLINK_ReadMemEx(0x20000B54, 0x0001 Bytes, ..., AccessWidth = 33554432)Mis-aligned memory read: Address: 0x20000B54, NumBytes: 1, Alignment: 2 (Halfword-aligned)
  ***** Mis-aligned memory read: Address: 0x20000B54, NumBytes: 1, Alignment: 2 (Halfword-aligned) -- Read from C cache (1 bytes @ 0x20000B54) - Data: 00  returns 0x01 (0000ms, 21100ms total)
T3184 2047:660 JLINK_ReadMemEx(0x20000B54, 0x0001 Bytes, ..., AccessWidth = 33554432)Mis-aligned memory read: Address: 0x20000B54, NumBytes: 1, Alignment: 2 (Halfword-aligned)
  ***** Mis-aligned memory read: Address: 0x20000B54, NumBytes: 1, Alignment: 2 (Halfword-aligned) -- Read from C cache (1 bytes @ 0x20000B54) - Data: 00  returns 0x01 (0000ms, 21100ms total)
T3184 2047:667 JLINK_ReadMemEx(0x2000000C, 0x0001 Bytes, ..., AccessWidth = 33554432)Mis-aligned memory read: Address: 0x2000000C, NumBytes: 1, Alignment: 2 (Halfword-aligned)
  ***** Mis-aligned memory read: Address: 0x2000000C, NumBytes: 1, Alignment: 2 (Halfword-aligned) -- CPU_ReadMem(64 bytes @ 0x20000000) -- Updating C cache (64 bytes @ 0x20000000) -- Read from C cache (1 bytes @ 0x2000000C) - Data: 40  returns 0x01 (0001ms, 21101ms total)
T3184 2047:668 JLINK_ReadMemEx(0x2000000C, 0x0001 Bytes, ..., AccessWidth = 33554432)Mis-aligned memory read: Address: 0x2000000C, NumBytes: 1, Alignment: 2 (Halfword-aligned)
  ***** Mis-aligned memory read: Address: 0x2000000C, NumBytes: 1, Alignment: 2 (Halfword-aligned) -- Read from C cache (1 bytes @ 0x2000000C) - Data: 40  returns 0x01 (0000ms, 21101ms total)
T3184 2047:668 JLINK_ReadMemEx(0x2000000C, 0x0001 Bytes, ..., AccessWidth = 33554432)Mis-aligned memory read: Address: 0x2000000C, NumBytes: 1, Alignment: 2 (Halfword-aligned)
  ***** Mis-aligned memory read: Address: 0x2000000C, NumBytes: 1, Alignment: 2 (Halfword-aligned) -- Read from C cache (1 bytes @ 0x2000000C) - Data: 40  returns 0x01 (0000ms, 21101ms total)
T0E40 2047:743 JLINK_ReadMemEx(0x08000228, 0x0002 Bytes, ..., AccessWidth = 33554432)Mis-aligned memory read: Address: 0x08000228, NumBytes: 2, Alignment: 2 (Halfword-aligned)
  ***** Mis-aligned memory read: Address: 0x08000228, NumBytes: 2, Alignment: 2 (Halfword-aligned) -- Read from C cache (2 bytes @ 0x08000228) - Data: 09 48  returns 0x02 (0001ms, 21102ms total)
T0E40 2047:744 JLINK_SetBPEx(Addr = 0x08002DD8, Type = 0xFFFFFFF2)  returns 0x00000001 (0000ms, 21102ms total)
T0E40 2047:744 JLINK_Go() -- CPU_WriteMem(4 bytes @ 0xE0002000) -- CPU_ReadMem(4 bytes @ 0xE0001000) -- CPU_WriteMem(4 bytes @ 0xE0002008) -- CPU_WriteMem(4 bytes @ 0xE000200C) -- CPU_WriteMem(4 bytes @ 0xE0002010) -- CPU_WriteMem(4 bytes @ 0xE0002014) -- CPU_WriteMem(4 bytes @ 0xE0002018) -- CPU_WriteMem(4 bytes @ 0xE000201C) -- CPU_WriteMem(4 bytes @ 0xE0001004) (0002ms, 21104ms total)
T0E40 2047:847 JLINK_IsHalted()  returns TRUE (0001ms, 21105ms total)
T0E40 2047:848 JLINK_Halt()  returns 0x00 (0000ms, 21104ms total)
T0E40 2047:848 JLINK_IsHalted()  returns TRUE (0000ms, 21104ms total)
T0E40 2047:848 JLINK_IsHalted()  returns TRUE (0000ms, 21104ms total)
T0E40 2047:848 JLINK_IsHalted()  returns TRUE (0000ms, 21104ms total)
T0E40 2047:849 JLINK_ReadReg(R15 (PC))  returns 0x08002DD8 (0000ms, 21104ms total)
T0E40 2047:849 JLINK_ReadReg(XPSR)  returns 0x21000000 (0000ms, 21104ms total)
T0E40 2047:849 JLINK_ClrBPEx(BPHandle = 0x00000001)  returns 0x00 (0000ms, 21104ms total)
T0E40 2047:849 JLINK_ReadMemU32(0xE000ED30, 0x0001 Items, ...) -- CPU_ReadMem(4 bytes @ 0xE000ED30) - Data: 02 00 00 00  returns 0x01 (0000ms, 21104ms total)
T0E40 2047:849 JLINK_ReadMemU32(0xE0001028, 0x0001 Items, ...) -- CPU_ReadMem(4 bytes @ 0xE0001028) - Data: 00 00 00 00  returns 0x01 (0000ms, 21104ms total)
T0E40 2047:849 JLINK_ReadMemU32(0xE0001038, 0x0001 Items, ...) -- CPU_ReadMem(4 bytes @ 0xE0001038) - Data: 00 02 00 00  returns 0x01 (0001ms, 21105ms total)
T0E40 2047:850 JLINK_ReadMemU32(0xE0001048, 0x0001 Items, ...) -- CPU_ReadMem(4 bytes @ 0xE0001048) - Data: 00 00 00 00  returns 0x01 (0000ms, 21105ms total)
T0E40 2047:850 JLINK_ReadMemU32(0xE0001058, 0x0001 Items, ...) -- CPU_ReadMem(4 bytes @ 0xE0001058) - Data: 00 00 00 00  returns 0x01 (0000ms, 21105ms total)
T0E40 2047:850 JLINK_ReadReg(R0)  returns 0x20000B60 (0000ms, 21105ms total)
T0E40 2047:850 JLINK_ReadReg(R1)  returns 0x20000D60 (0000ms, 21105ms total)
T0E40 2047:850 JLINK_ReadReg(R2)  returns 0x20000D60 (0000ms, 21105ms total)
T0E40 2047:850 JLINK_ReadReg(R3)  returns 0x20000D60 (0000ms, 21105ms total)
T0E40 2047:850 JLINK_ReadReg(R4)  returns 0x00000000 (0000ms, 21105ms total)
T0E40 2047:850 JLINK_ReadReg(R5)  returns 0x20000010 (0000ms, 21105ms total)
T0E40 2047:850 JLINK_ReadReg(R6)  returns 0x00000000 (0000ms, 21105ms total)
T0E40 2047:850 JLINK_ReadReg(R7)  returns 0x00000000 (0000ms, 21105ms total)
T0E40 2047:850 JLINK_ReadReg(R8)  returns 0x00000000 (0000ms, 21105ms total)
T0E40 2047:850 JLINK_ReadReg(R9)  returns 0x00000000 (0000ms, 21105ms total)
T0E40 2047:850 JLINK_ReadReg(R10)  returns 0x080035B4 (0000ms, 21105ms total)
T0E40 2047:850 JLINK_ReadReg(R11)  returns 0x00000000 (0000ms, 21105ms total)
T0E40 2047:851 JLINK_ReadReg(R12)  returns 0x20000050 (0000ms, 21105ms total)
T0E40 2047:851 JLINK_ReadReg(R13 (SP))  returns 0x20001160 (0000ms, 21105ms total)
T0E40 2047:851 JLINK_ReadReg(R14)  returns 0x08000217 (0000ms, 21105ms total)
T0E40 2047:851 JLINK_ReadReg(R15 (PC))  returns 0x08002DD8 (0000ms, 21105ms total)
T0E40 2047:851 JLINK_ReadReg(XPSR)  returns 0x21000000 (0000ms, 21105ms total)
T0E40 2047:851 JLINK_ReadReg(MSP)  returns 0x20001160 (0000ms, 21105ms total)
T0E40 2047:851 JLINK_ReadReg(PSP)  returns 0x00000000 (0000ms, 21105ms total)
T0E40 2047:851 JLINK_ReadReg(CFBP)  returns 0x04000000 (0000ms, 21105ms total)
T0E40 2047:851 JLINK_ReadReg(FPSCR)  returns 0x03000000 (0002ms, 21107ms total)
T0E40 2047:853 JLINK_ReadReg(FPS0)  returns 0x00000000 (0000ms, 21107ms total)
T0E40 2047:853 JLINK_ReadReg(FPS1)  returns 0x00000000 (0000ms, 21107ms total)
T0E40 2047:853 JLINK_ReadReg(FPS2)  returns 0x00000000 (0000ms, 21107ms total)
T0E40 2047:853 JLINK_ReadReg(FPS3)  returns 0x00000000 (0000ms, 21107ms total)
T0E40 2047:853 JLINK_ReadReg(FPS4)  returns 0x00000000 (0001ms, 21108ms total)
T0E40 2047:854 JLINK_ReadReg(FPS5)  returns 0x00000000 (0000ms, 21108ms total)
T0E40 2047:854 JLINK_ReadReg(FPS6)  returns 0x00000000 (0000ms, 21108ms total)
T0E40 2047:854 JLINK_ReadReg(FPS7)  returns 0x00000000 (0000ms, 21108ms total)
T0E40 2047:854 JLINK_ReadReg(FPS8)  returns 0x00000000 (0000ms, 21108ms total)
T0E40 2047:854 JLINK_ReadReg(FPS9)  returns 0x00000000 (0000ms, 21108ms total)
T0E40 2047:854 JLINK_ReadReg(FPS10)  returns 0x00000000 (0000ms, 21108ms total)
T0E40 2047:854 JLINK_ReadReg(FPS11)  returns 0x00000000 (0000ms, 21108ms total)
T0E40 2047:854 JLINK_ReadReg(FPS12)  returns 0x00000000 (0000ms, 21108ms total)
T0E40 2047:854 JLINK_ReadReg(FPS13)  returns 0x00000000 (0000ms, 21108ms total)
T0E40 2047:854 JLINK_ReadReg(FPS14)  returns 0x00000000 (0000ms, 21108ms total)
T0E40 2047:854 JLINK_ReadReg(FPS15)  returns 0x00000000 (0000ms, 21108ms total)
T0E40 2047:854 JLINK_ReadReg(FPS16)  returns 0x00000000 (0000ms, 21108ms total)
T0E40 2047:854 JLINK_ReadReg(FPS17)  returns 0x00000000 (0000ms, 21108ms total)
T0E40 2047:854 JLINK_ReadReg(FPS18)  returns 0x00000000 (0000ms, 21108ms total)
T0E40 2047:854 JLINK_ReadReg(FPS19)  returns 0x00000000 (0000ms, 21108ms total)
T0E40 2047:854 JLINK_ReadReg(FPS20)  returns 0x00000000 (0000ms, 21108ms total)
T0E40 2047:854 JLINK_ReadReg(FPS21)  returns 0x00000000 (0000ms, 21108ms total)
T0E40 2047:854 JLINK_ReadReg(FPS22)  returns 0x00000000 (0000ms, 21108ms total)
T0E40 2047:854 JLINK_ReadReg(FPS23)  returns 0x00000000 (0000ms, 21108ms total)
T0E40 2047:854 JLINK_ReadReg(FPS24)  returns 0x00000000 (0000ms, 21108ms total)
T0E40 2047:854 JLINK_ReadReg(FPS25)  returns 0x00000000 (0000ms, 21108ms total)
T0E40 2047:854 JLINK_ReadReg(FPS26)  returns 0x00000000 (0000ms, 21108ms total)
T0E40 2047:854 JLINK_ReadReg(FPS27)  returns 0x00000000 (0000ms, 21108ms total)
T0E40 2047:854 JLINK_ReadReg(FPS28)  returns 0x00000000 (0000ms, 21108ms total)
T0E40 2047:854 JLINK_ReadReg(FPS29)  returns 0x00000000 (0000ms, 21108ms total)
T0E40 2047:854 JLINK_ReadReg(FPS30)  returns 0x00000000 (0000ms, 21108ms total)
T0E40 2047:854 JLINK_ReadReg(FPS31)  returns 0x00000000 (0000ms, 21108ms total)
T3184 2047:857 JLINK_ReadMemEx(0x20000B54, 0x0001 Bytes, ..., AccessWidth = 33554432)Mis-aligned memory read: Address: 0x20000B54, NumBytes: 1, Alignment: 2 (Halfword-aligned)
  ***** Mis-aligned memory read: Address: 0x20000B54, NumBytes: 1, Alignment: 2 (Halfword-aligned) -- CPU_ReadMem(64 bytes @ 0x20000B40) -- Updating C cache (64 bytes @ 0x20000B40) -- Read from C cache (1 bytes @ 0x20000B54) - Data: 00  returns 0x01 (0000ms, 21108ms total)
T3184 2047:858 JLINK_ReadMemEx(0x2000000C, 0x0001 Bytes, ..., AccessWidth = 33554432)Mis-aligned memory read: Address: 0x2000000C, NumBytes: 1, Alignment: 2 (Halfword-aligned)
  ***** Mis-aligned memory read: Address: 0x2000000C, NumBytes: 1, Alignment: 2 (Halfword-aligned) -- CPU_ReadMem(64 bytes @ 0x20000000) -- Updating C cache (64 bytes @ 0x20000000) -- Read from C cache (1 bytes @ 0x2000000C) - Data: 08  returns 0x01 (0000ms, 21108ms total)
T3184 2047:863 JLINK_ReadMemEx(0x08002DD8, 0x003C Bytes, ..., AccessWidth = 33554432)Mis-aligned memory read: Address: 0x08002DD8, NumBytes: 60, Alignment: 2 (Halfword-aligned)
  ***** Mis-aligned memory read: Address: 0x08002DD8, NumBytes: 60, Alignment: 2 (Halfword-aligned) -- CPU_ReadMem(128 bytes @ 0x08002DC0) -- Updating C cache (128 bytes @ 0x08002DC0) -- Read from C cache (60 bytes @ 0x08002DD8) - Data: FE F7 54 F9 FF F7 24 FC A8 20 FF F7 83 FE FF F7 ...  returns 0x3C (0001ms, 21109ms total)
T3184 2047:864 JLINK_ReadMemEx(0x08002DD8, 0x0002 Bytes, ..., AccessWidth = 33554432)Mis-aligned memory read: Address: 0x08002DD8, NumBytes: 2, Alignment: 2 (Halfword-aligned)
  ***** Mis-aligned memory read: Address: 0x08002DD8, NumBytes: 2, Alignment: 2 (Halfword-aligned) -- Read from C cache (2 bytes @ 0x08002DD8) - Data: FE F7  returns 0x02 (0000ms, 21109ms total)
T3184 2047:864 JLINK_ReadMemEx(0x08002DDA, 0x0002 Bytes, ..., AccessWidth = 33554432)Mis-aligned memory read: Address: 0x08002DDA, NumBytes: 2, Alignment: 2 (Halfword-aligned)
  ***** Mis-aligned memory read: Address: 0x08002DDA, NumBytes: 2, Alignment: 2 (Halfword-aligned) -- Read from C cache (2 bytes @ 0x08002DDA) - Data: 54 F9  returns 0x02 (0000ms, 21109ms total)
T3184 2050:232 JLINK_ReadMemEx(0x20000B18, 0x0008 Bytes, ..., AccessWidth = 33554432)Mis-aligned memory read: Address: 0x20000B18, NumBytes: 8, Alignment: 2 (Halfword-aligned)
  ***** Mis-aligned memory read: Address: 0x20000B18, NumBytes: 8, Alignment: 2 (Halfword-aligned) -- CPU_ReadMem(64 bytes @ 0x20000B00) -- Updating C cache (64 bytes @ 0x20000B00) -- Read from C cache (8 bytes @ 0x20000B18) - Data: 00 00 00 00 00 00 00 00  returns 0x08 (0001ms, 21110ms total)
T3184 2050:233 JLINK_ReadMemEx(0x20000B20, 0x0008 Bytes, ..., AccessWidth = 33554432)Mis-aligned memory read: Address: 0x20000B20, NumBytes: 8, Alignment: 2 (Halfword-aligned)
  ***** Mis-aligned memory read: Address: 0x20000B20, NumBytes: 8, Alignment: 2 (Halfword-aligned) -- Read from C cache (8 bytes @ 0x20000B20) - Data: 00 00 00 00 00 00 00 00  returns 0x08 (0000ms, 21110ms total)
T3184 2050:233 JLINK_ReadMemEx(0x20000B28, 0x0004 Bytes, ..., AccessWidth = 33554432)Mis-aligned memory read: Address: 0x20000B28, NumBytes: 4, Alignment: 2 (Halfword-aligned)
  ***** Mis-aligned memory read: Address: 0x20000B28, NumBytes: 4, Alignment: 2 (Halfword-aligned) -- Read from C cache (4 bytes @ 0x20000B28) - Data: 00 00 00 00  returns 0x04 (0000ms, 21110ms total)
T3184 2056:397 JLINK_WriteMemEx(0x20000B54, 0x0001 Bytes, ..., AccessWidth = 33554432) - Data: 01Mis-aligned memory write: Address: 0x20000B54, NumBytes: 1, Alignment: 2 (Halfword-aligned)
  ***** Mis-aligned memory write: Address: 0x20000B54, NumBytes: 1, Alignment: 2 (Halfword-aligned) -- CPU_WriteMem(1 bytes @ 0x20000B54)  returns 0x01 (0000ms, 21110ms total)
T3184 2056:397 JLINK_ReadMemEx(0x20000B54, 0x0001 Bytes, ..., AccessWidth = 33554432)Mis-aligned memory read: Address: 0x20000B54, NumBytes: 1, Alignment: 2 (Halfword-aligned)
  ***** Mis-aligned memory read: Address: 0x20000B54, NumBytes: 1, Alignment: 2 (Halfword-aligned) -- CPU_ReadMem(64 bytes @ 0x20000B40) -- Updating C cache (64 bytes @ 0x20000B40) -- Read from C cache (1 bytes @ 0x20000B54) - Data: 01  returns 0x01 (0001ms, 21111ms total)
T3184 2056:398 JLINK_ReadMemEx(0x2000000C, 0x0001 Bytes, ..., AccessWidth = 33554432)Mis-aligned memory read: Address: 0x2000000C, NumBytes: 1, Alignment: 2 (Halfword-aligned)
  ***** Mis-aligned memory read: Address: 0x2000000C, NumBytes: 1, Alignment: 2 (Halfword-aligned) -- Read from C cache (1 bytes @ 0x2000000C) - Data: 08  returns 0x01 (0000ms, 21111ms total)
T3184 2056:399 JLINK_ReadMemEx(0x20000B54, 0x0001 Bytes, ..., AccessWidth = 33554432)Mis-aligned memory read: Address: 0x20000B54, NumBytes: 1, Alignment: 2 (Halfword-aligned)
  ***** Mis-aligned memory read: Address: 0x20000B54, NumBytes: 1, Alignment: 2 (Halfword-aligned) -- Read from C cache (1 bytes @ 0x20000B54) - Data: 01  returns 0x01 (0001ms, 21112ms total)
T3184 2056:400 JLINK_ReadMemEx(0x2000000C, 0x0001 Bytes, ..., AccessWidth = 33554432)Mis-aligned memory read: Address: 0x2000000C, NumBytes: 1, Alignment: 2 (Halfword-aligned)
  ***** Mis-aligned memory read: Address: 0x2000000C, NumBytes: 1, Alignment: 2 (Halfword-aligned) -- Read from C cache (1 bytes @ 0x2000000C) - Data: 08  returns 0x01 (0000ms, 21112ms total)
T3184 2059:204 JLINK_ReadMemEx(0x2000013C, 0x0004 Bytes, ..., AccessWidth = 33554432)Mis-aligned memory read: Address: 0x2000013C, NumBytes: 4, Alignment: 2 (Halfword-aligned)
  ***** Mis-aligned memory read: Address: 0x2000013C, NumBytes: 4, Alignment: 2 (Halfword-aligned) -- CPU_ReadMem(64 bytes @ 0x20000100) -- Updating C cache (64 bytes @ 0x20000100) -- Read from C cache (4 bytes @ 0x2000013C) - Data: 00 00 00 00  returns 0x04 (0001ms, 21113ms total)
T3184 2059:205 JLINK_ReadMemEx(0x20000140, 0x0004 Bytes, ..., AccessWidth = 33554432)Mis-aligned memory read: Address: 0x20000140, NumBytes: 4, Alignment: 2 (Halfword-aligned)
  ***** Mis-aligned memory read: Address: 0x20000140, NumBytes: 4, Alignment: 2 (Halfword-aligned) -- CPU_ReadMem(64 bytes @ 0x20000140) -- Updating C cache (64 bytes @ 0x20000140) -- Read from C cache (4 bytes @ 0x20000140) - Data: 00 00 00 00  returns 0x04 (0000ms, 21113ms total)
T3184 2059:205 JLINK_ReadMemEx(0x20000144, 0x0004 Bytes, ..., AccessWidth = 33554432)Mis-aligned memory read: Address: 0x20000144, NumBytes: 4, Alignment: 2 (Halfword-aligned)
  ***** Mis-aligned memory read: Address: 0x20000144, NumBytes: 4, Alignment: 2 (Halfword-aligned) -- Read from C cache (4 bytes @ 0x20000144) - Data: 00 00 00 00  returns 0x04 (0000ms, 21113ms total)
T3184 2059:206 JLINK_ReadMemEx(0x20000148, 0x0004 Bytes, ..., AccessWidth = 33554432)Mis-aligned memory read: Address: 0x20000148, NumBytes: 4, Alignment: 2 (Halfword-aligned)
  ***** Mis-aligned memory read: Address: 0x20000148, NumBytes: 4, Alignment: 2 (Halfword-aligned) -- Read from C cache (4 bytes @ 0x20000148) - Data: 00 00 00 00  returns 0x04 (0000ms, 21114ms total)
T3184 2059:206 JLINK_ReadMemEx(0x2000014C, 0x0004 Bytes, ..., AccessWidth = 33554432)Mis-aligned memory read: Address: 0x2000014C, NumBytes: 4, Alignment: 2 (Halfword-aligned)
  ***** Mis-aligned memory read: Address: 0x2000014C, NumBytes: 4, Alignment: 2 (Halfword-aligned) -- Read from C cache (4 bytes @ 0x2000014C) - Data: 00 00 00 00  returns 0x04 (0000ms, 21114ms total)
T3184 2059:206 JLINK_ReadMemEx(0x20000150, 0x0004 Bytes, ..., AccessWidth = 33554432)Mis-aligned memory read: Address: 0x20000150, NumBytes: 4, Alignment: 2 (Halfword-aligned)
  ***** Mis-aligned memory read: Address: 0x20000150, NumBytes: 4, Alignment: 2 (Halfword-aligned) -- Read from C cache (4 bytes @ 0x20000150) - Data: 00 00 00 00  returns 0x04 (0000ms, 21114ms total)
T3184 2059:206 JLINK_ReadMemEx(0x20000154, 0x0004 Bytes, ..., AccessWidth = 33554432)Mis-aligned memory read: Address: 0x20000154, NumBytes: 4, Alignment: 2 (Halfword-aligned)
  ***** Mis-aligned memory read: Address: 0x20000154, NumBytes: 4, Alignment: 2 (Halfword-aligned) -- Read from C cache (4 bytes @ 0x20000154) - Data: 00 00 00 00  returns 0x04 (0000ms, 21114ms total)
T3184 2059:206 JLINK_ReadMemEx(0x20000158, 0x0004 Bytes, ..., AccessWidth = 33554432)Mis-aligned memory read: Address: 0x20000158, NumBytes: 4, Alignment: 2 (Halfword-aligned)
  ***** Mis-aligned memory read: Address: 0x20000158, NumBytes: 4, Alignment: 2 (Halfword-aligned) -- Read from C cache (4 bytes @ 0x20000158) - Data: 00 00 00 00  returns 0x04 (0000ms, 21114ms total)
T3184 2059:206 JLINK_ReadMemEx(0x2000015C, 0x0004 Bytes, ..., AccessWidth = 33554432)Mis-aligned memory read: Address: 0x2000015C, NumBytes: 4, Alignment: 2 (Halfword-aligned)
  ***** Mis-aligned memory read: Address: 0x2000015C, NumBytes: 4, Alignment: 2 (Halfword-aligned) -- Read from C cache (4 bytes @ 0x2000015C) - Data: 00 00 00 00  returns 0x04 (0000ms, 21114ms total)
T3184 2059:206 JLINK_ReadMemEx(0x20000160, 0x0004 Bytes, ..., AccessWidth = 33554432)Mis-aligned memory read: Address: 0x20000160, NumBytes: 4, Alignment: 2 (Halfword-aligned)
  ***** Mis-aligned memory read: Address: 0x20000160, NumBytes: 4, Alignment: 2 (Halfword-aligned) -- Read from C cache (4 bytes @ 0x20000160) - Data: 00 00 00 00  returns 0x04 (0000ms, 21114ms total)
T3184 2059:206 JLINK_ReadMemEx(0x20000164, 0x0004 Bytes, ..., AccessWidth = 33554432)Mis-aligned memory read: Address: 0x20000164, NumBytes: 4, Alignment: 2 (Halfword-aligned)
  ***** Mis-aligned memory read: Address: 0x20000164, NumBytes: 4, Alignment: 2 (Halfword-aligned) -- Read from C cache (4 bytes @ 0x20000164) - Data: 00 00 00 00  returns 0x04 (0000ms, 21114ms total)
T3184 2059:206 JLINK_ReadMemEx(0x20000168, 0x0004 Bytes, ..., AccessWidth = 33554432)Mis-aligned memory read: Address: 0x20000168, NumBytes: 4, Alignment: 2 (Halfword-aligned)
  ***** Mis-aligned memory read: Address: 0x20000168, NumBytes: 4, Alignment: 2 (Halfword-aligned) -- Read from C cache (4 bytes @ 0x20000168) - Data: 00 00 00 00  returns 0x04 (0000ms, 21114ms total)
T3184 2059:206 JLINK_ReadMemEx(0x2000016C, 0x0004 Bytes, ..., AccessWidth = 33554432)Mis-aligned memory read: Address: 0x2000016C, NumBytes: 4, Alignment: 2 (Halfword-aligned)
  ***** Mis-aligned memory read: Address: 0x2000016C, NumBytes: 4, Alignment: 2 (Halfword-aligned) -- Read from C cache (4 bytes @ 0x2000016C) - Data: 00 00 00 00  returns 0x04 (0000ms, 21114ms total)
T3184 2059:206 JLINK_ReadMemEx(0x20000170, 0x0004 Bytes, ..., AccessWidth = 33554432)Mis-aligned memory read: Address: 0x20000170, NumBytes: 4, Alignment: 2 (Halfword-aligned)
  ***** Mis-aligned memory read: Address: 0x20000170, NumBytes: 4, Alignment: 2 (Halfword-aligned) -- Read from C cache (4 bytes @ 0x20000170) - Data: 00 00 00 00  returns 0x04 (0000ms, 21114ms total)
T3184 2059:206 JLINK_ReadMemEx(0x20000174, 0x0004 Bytes, ..., AccessWidth = 33554432)Mis-aligned memory read: Address: 0x20000174, NumBytes: 4, Alignment: 2 (Halfword-aligned)
  ***** Mis-aligned memory read: Address: 0x20000174, NumBytes: 4, Alignment: 2 (Halfword-aligned) -- Read from C cache (4 bytes @ 0x20000174) - Data: 00 00 00 00  returns 0x04 (0000ms, 21114ms total)
T3184 2059:206 JLINK_ReadMemEx(0x20000178, 0x0004 Bytes, ..., AccessWidth = 33554432)Mis-aligned memory read: Address: 0x20000178, NumBytes: 4, Alignment: 2 (Halfword-aligned)
  ***** Mis-aligned memory read: Address: 0x20000178, NumBytes: 4, Alignment: 2 (Halfword-aligned) -- Read from C cache (4 bytes @ 0x20000178) - Data: 00 00 00 00  returns 0x04 (0000ms, 21114ms total)
T3184 2059:206 JLINK_ReadMemEx(0x2000017C, 0x0004 Bytes, ..., AccessWidth = 33554432)Mis-aligned memory read: Address: 0x2000017C, NumBytes: 4, Alignment: 2 (Halfword-aligned)
  ***** Mis-aligned memory read: Address: 0x2000017C, NumBytes: 4, Alignment: 2 (Halfword-aligned) -- Read from C cache (4 bytes @ 0x2000017C) - Data: 00 00 00 00  returns 0x04 (0000ms, 21114ms total)
T3184 2059:206 JLINK_ReadMemEx(0x20000180, 0x0004 Bytes, ..., AccessWidth = 33554432)Mis-aligned memory read: Address: 0x20000180, NumBytes: 4, Alignment: 2 (Halfword-aligned)
  ***** Mis-aligned memory read: Address: 0x20000180, NumBytes: 4, Alignment: 2 (Halfword-aligned) -- CPU_ReadMem(64 bytes @ 0x20000180) -- Updating C cache (64 bytes @ 0x20000180) -- Read from C cache (4 bytes @ 0x20000180) - Data: 00 00 00 00  returns 0x04 (0001ms, 21115ms total)
T3184 2059:207 JLINK_ReadMemEx(0x20000184, 0x0004 Bytes, ..., AccessWidth = 33554432)Mis-aligned memory read: Address: 0x20000184, NumBytes: 4, Alignment: 2 (Halfword-aligned)
  ***** Mis-aligned memory read: Address: 0x20000184, NumBytes: 4, Alignment: 2 (Halfword-aligned) -- Read from C cache (4 bytes @ 0x20000184) - Data: 00 00 00 00  returns 0x04 (0000ms, 21115ms total)
T3184 2059:207 JLINK_ReadMemEx(0x20000188, 0x0004 Bytes, ..., AccessWidth = 33554432)Mis-aligned memory read: Address: 0x20000188, NumBytes: 4, Alignment: 2 (Halfword-aligned)
  ***** Mis-aligned memory read: Address: 0x20000188, NumBytes: 4, Alignment: 2 (Halfword-aligned) -- Read from C cache (4 bytes @ 0x20000188) - Data: 00 00 00 00  returns 0x04 (0000ms, 21115ms total)
T3184 2059:207 JLINK_ReadMemEx(0x2000018C, 0x0004 Bytes, ..., AccessWidth = 33554432)Mis-aligned memory read: Address: 0x2000018C, NumBytes: 4, Alignment: 2 (Halfword-aligned)
  ***** Mis-aligned memory read: Address: 0x2000018C, NumBytes: 4, Alignment: 2 (Halfword-aligned) -- Read from C cache (4 bytes @ 0x2000018C) - Data: 00 00 00 00  returns 0x04 (0000ms, 21115ms total)
T3184 2059:207 JLINK_ReadMemEx(0x20000190, 0x0004 Bytes, ..., AccessWidth = 33554432)Mis-aligned memory read: Address: 0x20000190, NumBytes: 4, Alignment: 2 (Halfword-aligned)
  ***** Mis-aligned memory read: Address: 0x20000190, NumBytes: 4, Alignment: 2 (Halfword-aligned) -- Read from C cache (4 bytes @ 0x20000190) - Data: 00 00 00 00  returns 0x04 (0000ms, 21115ms total)
T3184 2059:207 JLINK_ReadMemEx(0x20000194, 0x0004 Bytes, ..., AccessWidth = 33554432)Mis-aligned memory read: Address: 0x20000194, NumBytes: 4, Alignment: 2 (Halfword-aligned)
  ***** Mis-aligned memory read: Address: 0x20000194, NumBytes: 4, Alignment: 2 (Halfword-aligned) -- Read from C cache (4 bytes @ 0x20000194) - Data: 00 00 00 00  returns 0x04 (0000ms, 21115ms total)
T3184 2059:208 JLINK_ReadMemEx(0x20000198, 0x0004 Bytes, ..., AccessWidth = 33554432)Mis-aligned memory read: Address: 0x20000198, NumBytes: 4, Alignment: 2 (Halfword-aligned)
  ***** Mis-aligned memory read: Address: 0x20000198, NumBytes: 4, Alignment: 2 (Halfword-aligned) -- Read from C cache (4 bytes @ 0x20000198) - Data: 00 00 00 00  returns 0x04 (0000ms, 21116ms total)
T3184 2059:208 JLINK_ReadMemEx(0x2000019C, 0x0004 Bytes, ..., AccessWidth = 33554432)Mis-aligned memory read: Address: 0x2000019C, NumBytes: 4, Alignment: 2 (Halfword-aligned)
  ***** Mis-aligned memory read: Address: 0x2000019C, NumBytes: 4, Alignment: 2 (Halfword-aligned) -- Read from C cache (4 bytes @ 0x2000019C) - Data: 00 00 00 00  returns 0x04 (0000ms, 21116ms total)
T3184 2059:208 JLINK_ReadMemEx(0x200001A0, 0x0004 Bytes, ..., AccessWidth = 33554432)Mis-aligned memory read: Address: 0x200001A0, NumBytes: 4, Alignment: 2 (Halfword-aligned)
  ***** Mis-aligned memory read: Address: 0x200001A0, NumBytes: 4, Alignment: 2 (Halfword-aligned) -- Read from C cache (4 bytes @ 0x200001A0) - Data: 00 00 00 00  returns 0x04 (0000ms, 21116ms total)
T3184 2059:208 JLINK_ReadMemEx(0x200001A4, 0x0004 Bytes, ..., AccessWidth = 33554432)Mis-aligned memory read: Address: 0x200001A4, NumBytes: 4, Alignment: 2 (Halfword-aligned)
  ***** Mis-aligned memory read: Address: 0x200001A4, NumBytes: 4, Alignment: 2 (Halfword-aligned) -- Read from C cache (4 bytes @ 0x200001A4) - Data: 00 00 00 00  returns 0x04 (0000ms, 21116ms total)
T3184 2059:208 JLINK_ReadMemEx(0x200001A8, 0x0004 Bytes, ..., AccessWidth = 33554432)Mis-aligned memory read: Address: 0x200001A8, NumBytes: 4, Alignment: 2 (Halfword-aligned)
  ***** Mis-aligned memory read: Address: 0x200001A8, NumBytes: 4, Alignment: 2 (Halfword-aligned) -- Read from C cache (4 bytes @ 0x200001A8) - Data: 00 00 00 00  returns 0x04 (0000ms, 21116ms total)
T3184 2059:208 JLINK_ReadMemEx(0x200001AC, 0x0004 Bytes, ..., AccessWidth = 33554432)Mis-aligned memory read: Address: 0x200001AC, NumBytes: 4, Alignment: 2 (Halfword-aligned)
  ***** Mis-aligned memory read: Address: 0x200001AC, NumBytes: 4, Alignment: 2 (Halfword-aligned) -- Read from C cache (4 bytes @ 0x200001AC) - Data: 00 00 00 00  returns 0x04 (0000ms, 21116ms total)
T3184 2059:208 JLINK_ReadMemEx(0x200001B0, 0x0004 Bytes, ..., AccessWidth = 33554432)Mis-aligned memory read: Address: 0x200001B0, NumBytes: 4, Alignment: 2 (Halfword-aligned)
  ***** Mis-aligned memory read: Address: 0x200001B0, NumBytes: 4, Alignment: 2 (Halfword-aligned) -- Read from C cache (4 bytes @ 0x200001B0) - Data: 00 00 00 00  returns 0x04 (0000ms, 21116ms total)
T3184 2059:208 JLINK_ReadMemEx(0x200001B4, 0x0004 Bytes, ..., AccessWidth = 33554432)Mis-aligned memory read: Address: 0x200001B4, NumBytes: 4, Alignment: 2 (Halfword-aligned)
  ***** Mis-aligned memory read: Address: 0x200001B4, NumBytes: 4, Alignment: 2 (Halfword-aligned) -- Read from C cache (4 bytes @ 0x200001B4) - Data: 00 00 00 00  returns 0x04 (0000ms, 21116ms total)
T3184 2059:208 JLINK_ReadMemEx(0x200001B8, 0x0004 Bytes, ..., AccessWidth = 33554432)Mis-aligned memory read: Address: 0x200001B8, NumBytes: 4, Alignment: 2 (Halfword-aligned)
  ***** Mis-aligned memory read: Address: 0x200001B8, NumBytes: 4, Alignment: 2 (Halfword-aligned) -- Read from C cache (4 bytes @ 0x200001B8) - Data: 00 00 00 00  returns 0x04 (0000ms, 21116ms total)
T3184 2059:208 JLINK_ReadMemEx(0x200001BC, 0x0004 Bytes, ..., AccessWidth = 33554432)Mis-aligned memory read: Address: 0x200001BC, NumBytes: 4, Alignment: 2 (Halfword-aligned)
  ***** Mis-aligned memory read: Address: 0x200001BC, NumBytes: 4, Alignment: 2 (Halfword-aligned) -- Read from C cache (4 bytes @ 0x200001BC) - Data: 00 00 00 00  returns 0x04 (0000ms, 21116ms total)
T3184 2059:208 JLINK_ReadMemEx(0x200001C0, 0x0004 Bytes, ..., AccessWidth = 33554432)Mis-aligned memory read: Address: 0x200001C0, NumBytes: 4, Alignment: 2 (Halfword-aligned)
  ***** Mis-aligned memory read: Address: 0x200001C0, NumBytes: 4, Alignment: 2 (Halfword-aligned) -- CPU_ReadMem(64 bytes @ 0x200001C0) -- Updating C cache (64 bytes @ 0x200001C0) -- Read from C cache (4 bytes @ 0x200001C0) - Data: 00 00 00 00  returns 0x04 (0001ms, 21117ms total)
T3184 2059:209 JLINK_ReadMemEx(0x200001C4, 0x0004 Bytes, ..., AccessWidth = 33554432)Mis-aligned memory read: Address: 0x200001C4, NumBytes: 4, Alignment: 2 (Halfword-aligned)
  ***** Mis-aligned memory read: Address: 0x200001C4, NumBytes: 4, Alignment: 2 (Halfword-aligned) -- Read from C cache (4 bytes @ 0x200001C4) - Data: 00 00 00 00  returns 0x04 (0000ms, 21117ms total)
T3184 2059:209 JLINK_ReadMemEx(0x200001C8, 0x0004 Bytes, ..., AccessWidth = 33554432)Mis-aligned memory read: Address: 0x200001C8, NumBytes: 4, Alignment: 2 (Halfword-aligned)
  ***** Mis-aligned memory read: Address: 0x200001C8, NumBytes: 4, Alignment: 2 (Halfword-aligned) -- Read from C cache (4 bytes @ 0x200001C8) - Data: 00 00 00 00  returns 0x04 (0000ms, 21117ms total)
T3184 2059:209 JLINK_ReadMemEx(0x200001CC, 0x0004 Bytes, ..., AccessWidth = 33554432)Mis-aligned memory read: Address: 0x200001CC, NumBytes: 4, Alignment: 2 (Halfword-aligned)
  ***** Mis-aligned memory read: Address: 0x200001CC, NumBytes: 4, Alignment: 2 (Halfword-aligned) -- Read from C cache (4 bytes @ 0x200001CC) - Data: 00 00 00 00  returns 0x04 (0000ms, 21117ms total)
T3184 2059:209 JLINK_ReadMemEx(0x200001D0, 0x0004 Bytes, ..., AccessWidth = 33554432)Mis-aligned memory read: Address: 0x200001D0, NumBytes: 4, Alignment: 2 (Halfword-aligned)
  ***** Mis-aligned memory read: Address: 0x200001D0, NumBytes: 4, Alignment: 2 (Halfword-aligned) -- Read from C cache (4 bytes @ 0x200001D0) - Data: 00 00 00 00  returns 0x04 (0000ms, 21117ms total)
T3184 2059:209 JLINK_ReadMemEx(0x200001D4, 0x0004 Bytes, ..., AccessWidth = 33554432)Mis-aligned memory read: Address: 0x200001D4, NumBytes: 4, Alignment: 2 (Halfword-aligned)
  ***** Mis-aligned memory read: Address: 0x200001D4, NumBytes: 4, Alignment: 2 (Halfword-aligned) -- Read from C cache (4 bytes @ 0x200001D4) - Data: 00 00 00 00  returns 0x04 (0000ms, 21117ms total)
T3184 2059:209 JLINK_ReadMemEx(0x200001D8, 0x0004 Bytes, ..., AccessWidth = 33554432)Mis-aligned memory read: Address: 0x200001D8, NumBytes: 4, Alignment: 2 (Halfword-aligned)
  ***** Mis-aligned memory read: Address: 0x200001D8, NumBytes: 4, Alignment: 2 (Halfword-aligned) -- Read from C cache (4 bytes @ 0x200001D8) - Data: 00 00 00 00  returns 0x04 (0000ms, 21117ms total)
T3184 2059:209 JLINK_ReadMemEx(0x200001DC, 0x0004 Bytes, ..., AccessWidth = 33554432)Mis-aligned memory read: Address: 0x200001DC, NumBytes: 4, Alignment: 2 (Halfword-aligned)
  ***** Mis-aligned memory read: Address: 0x200001DC, NumBytes: 4, Alignment: 2 (Halfword-aligned) -- Read from C cache (4 bytes @ 0x200001DC) - Data: 00 00 00 00  returns 0x04 (0000ms, 21117ms total)
T3184 2059:209 JLINK_ReadMemEx(0x200001E0, 0x0004 Bytes, ..., AccessWidth = 33554432)Mis-aligned memory read: Address: 0x200001E0, NumBytes: 4, Alignment: 2 (Halfword-aligned)
  ***** Mis-aligned memory read: Address: 0x200001E0, NumBytes: 4, Alignment: 2 (Halfword-aligned) -- Read from C cache (4 bytes @ 0x200001E0) - Data: 00 00 00 00  returns 0x04 (0000ms, 21117ms total)
T3184 2059:209 JLINK_ReadMemEx(0x200001E4, 0x0004 Bytes, ..., AccessWidth = 33554432)Mis-aligned memory read: Address: 0x200001E4, NumBytes: 4, Alignment: 2 (Halfword-aligned)
  ***** Mis-aligned memory read: Address: 0x200001E4, NumBytes: 4, Alignment: 2 (Halfword-aligned) -- Read from C cache (4 bytes @ 0x200001E4) - Data: 00 00 00 00  returns 0x04 (0000ms, 21117ms total)
T3184 2059:209 JLINK_ReadMemEx(0x200001E8, 0x0004 Bytes, ..., AccessWidth = 33554432)Mis-aligned memory read: Address: 0x200001E8, NumBytes: 4, Alignment: 2 (Halfword-aligned)
  ***** Mis-aligned memory read: Address: 0x200001E8, NumBytes: 4, Alignment: 2 (Halfword-aligned) -- Read from C cache (4 bytes @ 0x200001E8) - Data: 00 00 00 00  returns 0x04 (0000ms, 21117ms total)
T3184 2059:209 JLINK_ReadMemEx(0x200001EC, 0x0004 Bytes, ..., AccessWidth = 33554432)Mis-aligned memory read: Address: 0x200001EC, NumBytes: 4, Alignment: 2 (Halfword-aligned)
  ***** Mis-aligned memory read: Address: 0x200001EC, NumBytes: 4, Alignment: 2 (Halfword-aligned) -- Read from C cache (4 bytes @ 0x200001EC) - Data: 00 00 00 00  returns 0x04 (0000ms, 21117ms total)
T3184 2059:209 JLINK_ReadMemEx(0x200001F0, 0x0004 Bytes, ..., AccessWidth = 33554432)Mis-aligned memory read: Address: 0x200001F0, NumBytes: 4, Alignment: 2 (Halfword-aligned)
  ***** Mis-aligned memory read: Address: 0x200001F0, NumBytes: 4, Alignment: 2 (Halfword-aligned) -- Read from C cache (4 bytes @ 0x200001F0) - Data: 00 00 00 00  returns 0x04 (0001ms, 21118ms total)
T3184 2059:210 JLINK_ReadMemEx(0x200001F4, 0x0004 Bytes, ..., AccessWidth = 33554432)Mis-aligned memory read: Address: 0x200001F4, NumBytes: 4, Alignment: 2 (Halfword-aligned)
  ***** Mis-aligned memory read: Address: 0x200001F4, NumBytes: 4, Alignment: 2 (Halfword-aligned) -- Read from C cache (4 bytes @ 0x200001F4) - Data: 00 00 00 00  returns 0x04 (0000ms, 21118ms total)
T3184 2059:210 JLINK_ReadMemEx(0x200001F8, 0x0004 Bytes, ..., AccessWidth = 33554432)Mis-aligned memory read: Address: 0x200001F8, NumBytes: 4, Alignment: 2 (Halfword-aligned)
  ***** Mis-aligned memory read: Address: 0x200001F8, NumBytes: 4, Alignment: 2 (Halfword-aligned) -- Read from C cache (4 bytes @ 0x200001F8) - Data: 00 00 00 00  returns 0x04 (0000ms, 21118ms total)
T3184 2059:210 JLINK_ReadMemEx(0x200001FC, 0x0004 Bytes, ..., AccessWidth = 33554432)Mis-aligned memory read: Address: 0x200001FC, NumBytes: 4, Alignment: 2 (Halfword-aligned)
  ***** Mis-aligned memory read: Address: 0x200001FC, NumBytes: 4, Alignment: 2 (Halfword-aligned) -- Read from C cache (4 bytes @ 0x200001FC) - Data: 00 00 00 00  returns 0x04 (0000ms, 21118ms total)
T3184 2059:210 JLINK_ReadMemEx(0x20000200, 0x0004 Bytes, ..., AccessWidth = 33554432)Mis-aligned memory read: Address: 0x20000200, NumBytes: 4, Alignment: 2 (Halfword-aligned)
  ***** Mis-aligned memory read: Address: 0x20000200, NumBytes: 4, Alignment: 2 (Halfword-aligned) -- CPU_ReadMem(64 bytes @ 0x20000200) -- Updating C cache (64 bytes @ 0x20000200) -- Read from C cache (4 bytes @ 0x20000200) - Data: 00 00 00 00  returns 0x04 (0000ms, 21118ms total)
